
T6584 000:033 SEGGER J-Link V6.00e Log File (0000ms, 0018ms total)
T6584 000:033 DLL Compiled: Aug  4 2016 09:37:38 (0000ms, 0018ms total)
T6584 000:033 Logging started @ 2024-01-08 21:14 (0000ms, 0018ms total)
T6584 000:033 JLINK_SetWarnOutHandler(...) (0000ms, 0018ms total)
T6584 000:033 JLINK_OpenEx(...)
Firmware: J-Link ARM-OB STM32 compiled Aug 22 2012 19:52:04
Hardware: V7.00
S/N: 20090929
Feature(s): RDI,FlashDL,FlashBP,JFlash,GDBFull  returns O.K. (0010ms, 0028ms total)
T6584 000:043 JLINK_SetErrorOutHandler(...) (0000ms, 0028ms total)
T6584 000:043 JLINK_ExecCommand("ProjectFile = "D:\WORK\RM\buff\buff_sensor\buff_sensor_driver\MDK-ARM\JLinkSettings.ini"", ...).   returns 0x00 (0062ms, 0090ms total)
T6584 000:105 JLINK_ExecCommand("Device = STM32F103C8", ...). Device "STM32F103C8" selected.  returns 0x00 (0001ms, 0091ms total)
T6584 000:106 JLINK_ExecCommand("DisableConnectionTimeout", ...).   returns 0x01 (0000ms, 0091ms total)
T6584 000:106 JLINK_GetHardwareVersion()  returns 0x11170 (0000ms, 0091ms total)
T6584 000:106 JLINK_GetDLLVersion()  returns 60005 (0000ms, 0091ms total)
T6584 000:106 JLINK_GetFirmwareString(...) (0000ms, 0091ms total)
T6584 000:106 JLINK_GetDLLVersion()  returns 60005 (0000ms, 0091ms total)
T6584 000:106 JLINK_GetCompileDateTime() (0000ms, 0091ms total)
T6584 000:106 JLINK_GetFirmwareString(...) (0000ms, 0091ms total)
T6584 000:106 JLINK_GetHardwareVersion()  returns 0x11170 (0000ms, 0091ms total)
T6584 000:106 JLINK_TIF_Select(JLINKARM_TIF_SWD)  returns 0x00 (0001ms, 0092ms total)
T6584 000:107 JLINK_SetSpeed(25000) (0000ms, 0092ms total)
T6584 000:107 JLINK_GetId() >0x108 TIF>Found SWD-DP with ID 0x1BA01477 >0x0D TIF> >0x28 TIF> >0x0D TIF> >0x28 TIF> >0x0D TIF> >0x28 TIF> >0x0D TIF> >0x28 TIF> >0x0D TIF> >0x21 TIF> >0x0D TIF> >0x28 TIF> >0x0D TIF> >0x28 TIF> >0x0D TIF> >0x28 TIF> >0x0D TIF> >0x21 TIF> >0x0D TIF> >0x21 TIF> >0x0D TIF> >0x28 TIF> >0x0D TIF> >0x21 TIF> >0x0D TIF> >0x21 TIF> >0x0D TIF> >0x28 TIF> >0x0D TIF> >0x21 TIF> >0x0D TIF> >0x21 TIF> >0x0D TIF> >0x28 TIF> >0x0D TIF> >0x21 TIF> >0x0D TIF> >0x21 TIF> >0x0D TIF>
 >0x28 TIF> >0x0D TIF> >0x21 TIF> >0x0D TIF> >0x21 TIF> >0x0D TIF> >0x28 TIF> >0x0D TIF> >0x21 TIF> >0x0D TIF> >0x21 TIF> >0x0D TIF> >0x28 TIF> >0x0D TIF> >0x21 TIF> >0x0D TIF> >0x21 TIF> >0x108 TIF>Found SWD-DP with ID 0x1BA01477 >0x0D TIF> >0x28 TIF> >0x0D TIF> >0x28 TIF> >0x0D TIF> >0x28 TIF> >0x0D TIF> >0x28 TIF> >0x0D TIF> >0x21 TIF> >0x0D TIF> >0x28 TIF> >0x0D TIF> >0x28 TIF> >0x0D TIF> >0x21 TIF> >0x0D TIF> >0x21 TIF> >0x0D TIF> >0x21 TIF>AP-IDR: 0x14770011, Type: AHB-AP >0x0D TIF> >0x28 TIF>
 >0x0D TIF> >0x28 TIF> >0x0D TIF> >0x28 TIF> >0x0D TIF> >0x21 TIF> >0x0D TIF> >0x21 TIF> >0x0D TIF> >0x28 TIF> >0x0D TIF> >0x21 TIF> >0x0D TIF> >0x21 TIF>Found Cortex-M3 r1p1, Little endian. -- CPU_ReadMem(4 bytes @ 0xE000EDF0) -- CPU_ReadMem(4 bytes @ 0xE0002000)FPUnit: 6 code (BP) slots and 2 literal slots -- CPU_ReadMem(4 bytes @ 0xE000EDFC) -- CPU_ReadMem(4 bytes @ 0xE0001000) -- CPU_WriteMem(4 bytes @ 0xE0001000) -- CPU_ReadMem(4 bytes @ 0xE000ED88) -- CPU_WriteMem(4 bytes @ 0xE000ED88)
 -- CPU_ReadMem(4 bytes @ 0xE000ED88) -- CPU_WriteMem(4 bytes @ 0xE000ED88)CoreSight components:ROMTbl 0 @ E00FF000 -- CPU_ReadMem(16 bytes @ 0xE00FF000) -- CPU_ReadMem(16 bytes @ 0xE000EFF0) -- CPU_ReadMem(16 bytes @ 0xE000EFE0)ROMTbl 0 [0]: FFF0F000, CID: B105E00D, PID: 001BB000 SCS -- CPU_ReadMem(16 bytes @ 0xE0001FF0) -- CPU_ReadMem(16 bytes @ 0xE0001FE0)ROMTbl 0 [1]: FFF02000, CID: B105E00D, PID: 001BB002 DWT -- CPU_ReadMem(16 bytes @ 0xE0002FF0) -- CPU_ReadMem(16 bytes @ 0xE0002FE0)
ROMTbl 0 [2]: FFF03000, CID: B105E00D, PID: 000BB003 FPB -- CPU_ReadMem(16 bytes @ 0xE0000FF0) -- CPU_ReadMem(16 bytes @ 0xE0000FE0)ROMTbl 0 [3]: FFF01000, CID: B105E00D, PID: 001BB001 ITM -- CPU_ReadMem(16 bytes @ 0xE00FF010) -- CPU_ReadMem(16 bytes @ 0xE0040FF0) -- CPU_ReadMem(16 bytes @ 0xE0040FE0)ROMTbl 0 [4]: FFF41000, CID: B105900D, PID: 001BB923 TPIU-Lite >0x0D TIF> >0x21 TIF>  returns 0x1BA01477 (0043ms, 0135ms total)
T6584 000:151 JLINK_GetDLLVersion()  returns 60005 (0000ms, 0136ms total)
T6584 000:151 JLINK_CORE_GetFound()  returns 0x30000FF (0000ms, 0136ms total)
T6584 000:151 JLINK_GetDebugInfo(0x100) -- Value=0xE00FF000  returns 0x00 (0000ms, 0136ms total)
T6584 000:151 JLINK_GetDebugInfo(0x100) -- Value=0xE00FF000  returns 0x00 (0000ms, 0136ms total)
T6584 000:151 JLINK_GetDebugInfo(0x101) -- Value=0x00000000  returns 0x00 (0000ms, 0136ms total)
T6584 000:151 JLINK_ReadMem (0xE0041FF0, 0x0010 Bytes, ...) -- CPU is running -- CPU_ReadMem(16 bytes @ 0xE0041FF0) - Data: 00 00 00 00 00 00 00 00 00 00 00 00 00 00 00 00  returns 0x00 (0001ms, 0137ms total)
T6584 000:152 JLINK_GetDebugInfo(0x102) -- Value=0x00000000  returns 0x00 (0000ms, 0137ms total)
T6584 000:152 JLINK_GetDebugInfo(0x103) -- Value=0xE0040000  returns 0x00 (0000ms, 0137ms total)
T6584 000:152 JLINK_GetDebugInfo(0x104) -- Value=0xE0000000  returns 0x00 (0000ms, 0137ms total)
T6584 000:152 JLINK_GetDebugInfo(0x105) -- Value=0xE0001000  returns 0x00 (0000ms, 0137ms total)
T6584 000:152 JLINK_GetDebugInfo(0x106) -- Value=0xE0002000  returns 0x00 (0000ms, 0137ms total)
T6584 000:152 JLINK_GetDebugInfo(0x107) -- Value=0xE000E000  returns 0x00 (0000ms, 0137ms total)
T6584 000:152 JLINK_GetDebugInfo(0x10C) -- Value=0xE000EDF0  returns 0x00 (0000ms, 0137ms total)
T6584 000:152 JLINK_ReadMemU32(0xE000ED00, 0x0001 Items, ...) -- CPU is running -- CPU_ReadMem(4 bytes @ 0xE000ED00) - Data: 31 C2 1F 41  returns 0x01 (0000ms, 0137ms total)
T6584 000:152 JLINK_SetResetType(JLINKARM_RESET_TYPE_NORMAL)  returns JLINKARM_RESET_TYPE_NORMAL (0000ms, 0137ms total)
T6584 000:152 JLINK_Reset() -- CPU is running -- CPU_WriteMem(4 bytes @ 0xE000EDF0) -- CPU is running -- CPU_WriteMem(4 bytes @ 0xE000EDFC) >0x35 TIF> -- CPU is running -- CPU_WriteMem(4 bytes @ 0xE000ED0C) -- CPU is running -- CPU_ReadMem(4 bytes @ 0xE000EDF0) -- CPU is running -- CPU_ReadMem(4 bytes @ 0xE000EDF0) -- CPU is running -- CPU_WriteMem(4 bytes @ 0xE000EDF0) -- CPU is running -- CPU_WriteMem(4 bytes @ 0xE000EDFC) -- CPU is running -- CPU_ReadMem(4 bytes @ 0xE000EDF0)
 -- CPU_WriteMem(4 bytes @ 0xE0002000) -- CPU_ReadMem(4 bytes @ 0xE000EDFC) -- CPU_ReadMem(4 bytes @ 0xE0001000) (0022ms, 0159ms total)
T6584 000:174 JLINK_ReadReg(R15 (PC))  returns 0x08000220 (0000ms, 0159ms total)
T6584 000:174 JLINK_ReadReg(XPSR)  returns 0x01000000 (0000ms, 0159ms total)
T6584 000:174 JLINK_Halt()  returns 0x00 (0000ms, 0159ms total)
T6584 000:174 JLINK_IsHalted()  returns TRUE (0000ms, 0159ms total)
T6584 000:174 JLINK_ReadMemU32(0xE000EDF0, 0x0001 Items, ...) -- CPU_ReadMem(4 bytes @ 0xE000EDF0) - Data: 03 00 03 00  returns 0x01 (0001ms, 0160ms total)
T6584 000:175 JLINK_WriteU32(0xE000EDF0, 0xA05F0003) -- CPU_WriteMem(4 bytes @ 0xE000EDF0)  returns 0x00 (0001ms, 0161ms total)
T6584 000:176 JLINK_WriteU32(0xE000EDFC, 0x01000000) -- CPU_WriteMem(4 bytes @ 0xE000EDFC)  returns 0x00 (0001ms, 0162ms total)
T6584 000:177 JLINK_GetHWStatus(...)  returns 0x00 (0002ms, 0164ms total)
T6584 000:179 JLINK_GetNumBPUnits(Type = 0xFFFFFF00)  returns 0x06 (0000ms, 0164ms total)
T6584 000:179 JLINK_GetNumBPUnits(Type = 0xF0)  returns 0x2000 (0000ms, 0164ms total)
T6584 000:179 JLINK_GetNumWPUnits()  returns 0x04 (0000ms, 0164ms total)
T6584 000:179 JLINK_GetSpeed()  returns 0xFA0 (0000ms, 0164ms total)
T6584 000:179 JLINK_ReadMemU32(0xE000E004, 0x0001 Items, ...) -- CPU_ReadMem(4 bytes @ 0xE000E004) - Data: 01 00 00 00  returns 0x01 (0001ms, 0165ms total)
T6584 000:180 JLINK_ReadMemU32(0xE000E004, 0x0001 Items, ...) -- CPU_ReadMem(4 bytes @ 0xE000E004) - Data: 01 00 00 00  returns 0x01 (0000ms, 0165ms total)
T6584 000:180 JLINK_WriteMem(0xE0001000, 0x001C Bytes, ...) - Data: 01 00 00 00 00 00 00 00 00 00 00 00 00 00 00 00 ... -- CPU_WriteMem(28 bytes @ 0xE0001000)  returns 0x1C (0002ms, 0167ms total)
T6584 000:182 JLINK_ReadMem (0xE0001000, 0x001C Bytes, ...) -- CPU_ReadMem(28 bytes @ 0xE0001000) - Data: 01 00 00 40 00 00 00 00 00 00 00 00 00 00 00 00 ...  returns 0x00 (0001ms, 0168ms total)
T6584 000:184 JLINK_ReadReg(R15 (PC))  returns 0x08000220 (0000ms, 0168ms total)
T6584 000:184 JLINK_ReadReg(XPSR)  returns 0x01000000 (0000ms, 0168ms total)
T6584 000:281 JLINK_SetResetType(JLINKARM_RESET_TYPE_NORMAL)  returns JLINKARM_RESET_TYPE_NORMAL (0000ms, 0168ms total)
T6584 000:281 JLINK_Reset() -- CPU_WriteMem(4 bytes @ 0xE000EDF0) -- CPU_WriteMem(4 bytes @ 0xE000EDFC) >0x35 TIF> -- CPU_WriteMem(4 bytes @ 0xE000ED0C) -- CPU_ReadMem(4 bytes @ 0xE000EDF0) -- CPU_ReadMem(4 bytes @ 0xE000EDF0) -- CPU_WriteMem(4 bytes @ 0xE000EDF0) -- CPU_WriteMem(4 bytes @ 0xE000EDFC) -- CPU is running -- CPU_ReadMem(4 bytes @ 0xE000EDF0) -- CPU_WriteMem(4 bytes @ 0xE0002000) -- CPU_ReadMem(4 bytes @ 0xE000EDFC) -- CPU_ReadMem(4 bytes @ 0xE0001000) (0021ms, 0189ms total)
T6584 000:302 JLINK_ReadReg(R15 (PC))  returns 0x08000220 (0000ms, 0189ms total)
T6584 000:302 JLINK_ReadReg(XPSR)  returns 0x01000000 (0000ms, 0189ms total)
T6584 000:401 JLINK_ReadMem (0x08000220, 0x003C Bytes, ...) -- CPU_ReadMem(128 bytes @ 0x08000200) -- Updating C cache (128 bytes @ 0x08000200) -- Read from C cache (60 bytes @ 0x08000220) - Data: 09 48 80 47 09 48 00 47 FE E7 FE E7 FE E7 FE E7 ...  returns 0x00 (0002ms, 0191ms total)
T6A08 001:236 JLINK_SetBPEx(Addr = 0x0800266C, Type = 0xFFFFFFF2)  returns 0x00000001 (0000ms, 0191ms total)
T6A08 001:236 JLINK_SetBPEx(Addr = 0x0800234A, Type = 0xFFFFFFF2)  returns 0x00000002 (0000ms, 0191ms total)
T6A08 001:236 JLINK_SetBPEx(Addr = 0x0800262C, Type = 0xFFFFFFF2)  returns 0x00000003 (0000ms, 0191ms total)
T6A08 001:236 JLINK_Go() -- CPU_WriteMem(4 bytes @ 0xE0002000) -- CPU_WriteMem(4 bytes @ 0xE0002000) -- CPU_WriteMem(4 bytes @ 0xE0002000) -- CPU_ReadMem(4 bytes @ 0xE0001000) -- CPU_WriteMem(4 bytes @ 0xE0002008) -- CPU_WriteMem(4 bytes @ 0xE000200C) -- CPU_WriteMem(4 bytes @ 0xE0002010) -- CPU_WriteMem(4 bytes @ 0xE0002014) -- CPU_WriteMem(4 bytes @ 0xE0002018) -- CPU_WriteMem(4 bytes @ 0xE000201C) -- CPU_WriteMem(4 bytes @ 0xE0001004) (0006ms, 0197ms total)
T6A08 001:343 JLINK_IsHalted()  returns TRUE (0003ms, 0200ms total)
T6A08 001:346 JLINK_Halt()  returns 0x00 (0000ms, 0197ms total)
T6A08 001:346 JLINK_IsHalted()  returns TRUE (0000ms, 0197ms total)
T6A08 001:346 JLINK_IsHalted()  returns TRUE (0000ms, 0197ms total)
T6A08 001:346 JLINK_IsHalted()  returns TRUE (0000ms, 0197ms total)
T6A08 001:346 JLINK_ReadReg(R15 (PC))  returns 0x0800266C (0000ms, 0197ms total)
T6A08 001:346 JLINK_ReadReg(XPSR)  returns 0x21000000 (0000ms, 0197ms total)
T6A08 001:346 JLINK_ClrBPEx(BPHandle = 0x00000001)  returns 0x00 (0000ms, 0197ms total)
T6A08 001:346 JLINK_ClrBPEx(BPHandle = 0x00000002)  returns 0x00 (0000ms, 0197ms total)
T6A08 001:346 JLINK_ClrBPEx(BPHandle = 0x00000003)  returns 0x00 (0000ms, 0197ms total)
T6A08 001:346 JLINK_ReadMemU32(0xE000ED30, 0x0001 Items, ...) -- CPU_ReadMem(4 bytes @ 0xE000ED30) - Data: 03 00 00 00  returns 0x01 (0000ms, 0197ms total)
T6A08 001:346 JLINK_ReadMemU32(0xE0001028, 0x0001 Items, ...) -- CPU_ReadMem(4 bytes @ 0xE0001028) - Data: 00 00 00 00  returns 0x01 (0001ms, 0198ms total)
T6A08 001:347 JLINK_ReadMemU32(0xE0001038, 0x0001 Items, ...) -- CPU_ReadMem(4 bytes @ 0xE0001038) - Data: 00 02 00 00  returns 0x01 (0000ms, 0198ms total)
T6A08 001:347 JLINK_ReadMemU32(0xE0001048, 0x0001 Items, ...) -- CPU_ReadMem(4 bytes @ 0xE0001048) - Data: 00 00 00 00  returns 0x01 (0002ms, 0200ms total)
T6A08 001:349 JLINK_ReadMemU32(0xE0001058, 0x0001 Items, ...) -- CPU_ReadMem(4 bytes @ 0xE0001058) - Data: 00 00 00 00  returns 0x01 (0000ms, 0200ms total)
T6A08 001:349 JLINK_ReadReg(R0)  returns 0x20002000 (0000ms, 0200ms total)
T6A08 001:349 JLINK_ReadReg(R1)  returns 0x20002200 (0000ms, 0200ms total)
T6A08 001:349 JLINK_ReadReg(R2)  returns 0x20002200 (0000ms, 0200ms total)
T6A08 001:349 JLINK_ReadReg(R3)  returns 0x20002200 (0000ms, 0200ms total)
T6A08 001:349 JLINK_ReadReg(R4)  returns 0x00000000 (0000ms, 0200ms total)
T6A08 001:349 JLINK_ReadReg(R5)  returns 0x20001FA0 (0000ms, 0200ms total)
T6A08 001:349 JLINK_ReadReg(R6)  returns 0x00000000 (0000ms, 0200ms total)
T6A08 001:349 JLINK_ReadReg(R7)  returns 0x00000000 (0000ms, 0200ms total)
T6A08 001:349 JLINK_ReadReg(R8)  returns 0x00000000 (0000ms, 0200ms total)
T6A08 001:349 JLINK_ReadReg(R9)  returns 0xA5A5A5A5 (0000ms, 0200ms total)
T6A08 001:349 JLINK_ReadReg(R10)  returns 0x0800401C (0000ms, 0200ms total)
T6A08 001:349 JLINK_ReadReg(R11)  returns 0x00000000 (0000ms, 0200ms total)
T6A08 001:349 JLINK_ReadReg(R12)  returns 0x20001FE0 (0000ms, 0200ms total)
T6A08 001:349 JLINK_ReadReg(R13 (SP))  returns 0x20002600 (0000ms, 0200ms total)
T6A08 001:349 JLINK_ReadReg(R14)  returns 0x08000177 (0000ms, 0200ms total)
T6A08 001:349 JLINK_ReadReg(R15 (PC))  returns 0x0800266C (0000ms, 0200ms total)
T6A08 001:349 JLINK_ReadReg(XPSR)  returns 0x21000000 (0000ms, 0200ms total)
T6A08 001:349 JLINK_ReadReg(MSP)  returns 0x20002600 (0000ms, 0200ms total)
T6A08 001:349 JLINK_ReadReg(PSP)  returns 0x200015D0 (0000ms, 0200ms total)
T6A08 001:349 JLINK_ReadReg(CFBP)  returns 0x00000000 (0000ms, 0200ms total)
T6584 001:350 JLINK_ReadMemU32(0xE0001004, 0x0001 Items, ...) -- CPU_ReadMem(4 bytes @ 0xE0001004) - Data: DB 13 00 00  returns 0x01 (0001ms, 0201ms total)
T6584 001:351 JLINK_ReadMem (0x0800266C, 0x003C Bytes, ...) -- CPU_ReadMem(128 bytes @ 0x08002640) -- Updating C cache (128 bytes @ 0x08002640) -- Read from C cache (60 bytes @ 0x0800266C) - Data: 08 B5 FE F7 C9 FF FF F7 A5 FE 26 48 81 69 41 F0 ...  returns 0x00 (0002ms, 0203ms total)
T6584 003:406 JLINK_ReadMem (0x0800F700, 0x0100 Bytes, ...) -- CPU_ReadMem(256 bytes @ 0x0800F700) -- Updating C cache (256 bytes @ 0x0800F700) -- Read from C cache (256 bytes @ 0x0800F700) - Data: FF FF FF FF FF FF FF FF FF FF FF FF FF FF FF FF ...  returns 0x00 (0003ms, 0206ms total)
T6584 003:409 JLINK_ReadMem (0x0800F800, 0x0126 Bytes, ...) -- CPU_ReadMem(320 bytes @ 0x0800F800) -- Updating C cache (320 bytes @ 0x0800F800) -- Read from C cache (294 bytes @ 0x0800F800) - Data: 53 54 4D 33 32 20 46 4C 41 53 48 20 54 45 53 54 ...  returns 0x00 (0004ms, 0210ms total)
T6A08 010:771 JLINK_SetBPEx(Addr = 0x0800234A, Type = 0xFFFFFFF2)  returns 0x00000004 (0000ms, 0210ms total)
T6A08 010:771 JLINK_SetBPEx(Addr = 0x0800262C, Type = 0xFFFFFFF2)  returns 0x00000005 (0000ms, 0210ms total)
T6A08 010:771 JLINK_Go() -- CPU_WriteMem(4 bytes @ 0xE0002000) -- CPU_WriteMem(4 bytes @ 0xE0002000) -- CPU_ReadMem(4 bytes @ 0xE0001000) -- CPU_WriteMem(4 bytes @ 0xE0002008) -- CPU_WriteMem(4 bytes @ 0xE000200C) -- CPU_WriteMem(4 bytes @ 0xE0002010) (0005ms, 0215ms total)
T6A08 010:878 JLINK_IsHalted()  returns TRUE (0004ms, 0219ms total)
T6A08 010:882 JLINK_Halt()  returns 0x00 (0000ms, 0215ms total)
T6A08 010:882 JLINK_IsHalted()  returns TRUE (0000ms, 0215ms total)
T6A08 010:882 JLINK_IsHalted()  returns TRUE (0000ms, 0215ms total)
T6A08 010:882 JLINK_IsHalted()  returns TRUE (0000ms, 0215ms total)
T6A08 010:882 JLINK_ReadReg(R15 (PC))  returns 0x0800234A (0000ms, 0215ms total)
T6A08 010:882 JLINK_ReadReg(XPSR)  returns 0x01000000 (0000ms, 0215ms total)
T6A08 010:882 JLINK_ClrBPEx(BPHandle = 0x00000004)  returns 0x00 (0000ms, 0215ms total)
T6A08 010:882 JLINK_ClrBPEx(BPHandle = 0x00000005)  returns 0x00 (0000ms, 0215ms total)
T6A08 010:882 JLINK_ReadMemU32(0xE000ED30, 0x0001 Items, ...) -- CPU_ReadMem(4 bytes @ 0xE000ED30) - Data: 03 00 00 00  returns 0x01 (0001ms, 0216ms total)
T6A08 010:883 JLINK_ReadMemU32(0xE0001028, 0x0001 Items, ...) -- CPU_ReadMem(4 bytes @ 0xE0001028) - Data: 00 00 00 00  returns 0x01 (0001ms, 0217ms total)
T6A08 010:884 JLINK_ReadMemU32(0xE0001038, 0x0001 Items, ...) -- CPU_ReadMem(4 bytes @ 0xE0001038) - Data: 00 02 00 00  returns 0x01 (0001ms, 0218ms total)
T6A08 010:885 JLINK_ReadMemU32(0xE0001048, 0x0001 Items, ...) -- CPU_ReadMem(4 bytes @ 0xE0001048) - Data: 00 00 00 00  returns 0x01 (0001ms, 0219ms total)
T6A08 010:886 JLINK_ReadMemU32(0xE0001058, 0x0001 Items, ...) -- CPU_ReadMem(4 bytes @ 0xE0001058) - Data: 00 00 00 00  returns 0x01 (0001ms, 0220ms total)
T6A08 010:887 JLINK_ReadReg(R0)  returns 0x00000000 (0000ms, 0220ms total)
T6A08 010:887 JLINK_ReadReg(R1)  returns 0xA5A5A5A5 (0000ms, 0220ms total)
T6A08 010:887 JLINK_ReadReg(R2)  returns 0xA5A5A5A5 (0000ms, 0220ms total)
T6A08 010:887 JLINK_ReadReg(R3)  returns 0xA5A5A5A5 (0000ms, 0220ms total)
T6A08 010:887 JLINK_ReadReg(R4)  returns 0xA5A5A5A5 (0000ms, 0220ms total)
T6A08 010:888 JLINK_ReadReg(R5)  returns 0xA5A5A5A5 (0000ms, 0220ms total)
T6A08 010:888 JLINK_ReadReg(R6)  returns 0xA5A5A5A5 (0000ms, 0220ms total)
T6A08 010:888 JLINK_ReadReg(R7)  returns 0xA5A5A5A5 (0000ms, 0220ms total)
T6A08 010:888 JLINK_ReadReg(R8)  returns 0xA5A5A5A5 (0000ms, 0220ms total)
T6A08 010:888 JLINK_ReadReg(R9)  returns 0xA5A5A5A5 (0000ms, 0220ms total)
T6A08 010:888 JLINK_ReadReg(R10)  returns 0xA5A5A5A5 (0000ms, 0220ms total)
T6A08 010:888 JLINK_ReadReg(R11)  returns 0xA5A5A5A5 (0000ms, 0220ms total)
T6A08 010:888 JLINK_ReadReg(R12)  returns 0xA5A5A5A5 (0000ms, 0220ms total)
T6A08 010:888 JLINK_ReadReg(R13 (SP))  returns 0x20001100 (0000ms, 0220ms total)
T6A08 010:888 JLINK_ReadReg(R14)  returns 0x08002F05 (0000ms, 0220ms total)
T6A08 010:888 JLINK_ReadReg(R15 (PC))  returns 0x0800234A (0000ms, 0220ms total)
T6A08 010:888 JLINK_ReadReg(XPSR)  returns 0x01000000 (0000ms, 0220ms total)
T6A08 010:888 JLINK_ReadReg(MSP)  returns 0x200025E0 (0000ms, 0220ms total)
T6A08 010:888 JLINK_ReadReg(PSP)  returns 0x20001100 (0000ms, 0220ms total)
T6A08 010:888 JLINK_ReadReg(CFBP)  returns 0x02000000 (0000ms, 0220ms total)
T6584 010:888 JLINK_ReadMem (0x20001104, 0x0004 Bytes, ...) -- CPU_ReadMem(64 bytes @ 0x20001100) -- Updating C cache (64 bytes @ 0x20001100) -- Read from C cache (4 bytes @ 0x20001104) - Data: 05 2F 00 08  returns 0x00 (0002ms, 0222ms total)
T6584 010:890 JLINK_ReadMem (0x20001100, 0x0004 Bytes, ...) -- Read from C cache (4 bytes @ 0x20001100) - Data: A5 A5 A5 A5  returns 0x00 (0000ms, 0222ms total)
T6584 010:893 JLINK_ReadMem (0x00000000, 0x0004 Bytes, ...) -- CPU_ReadMem(4 bytes @ 0x00000004) -- CPU_ReadMem(64 bytes @ 0x08000000) -- Updating C cache (64 bytes @ 0x08000000) -- Read from C cache (4 bytes @ 0x08000000) - Data: 00 26 00 20  returns 0x00 (0002ms, 0224ms total)
T6584 010:898 JLINK_ReadMemU32(0xE0001004, 0x0001 Items, ...) -- CPU_ReadMem(4 bytes @ 0xE0001004) - Data: 56 47 00 00  returns 0x01 (0001ms, 0225ms total)
T6584 010:899 JLINK_ReadMem (0x0800F700, 0x0100 Bytes, ...) -- CPU_ReadMem(256 bytes @ 0x0800F700) -- Updating C cache (256 bytes @ 0x0800F700) -- Read from C cache (256 bytes @ 0x0800F700) - Data: FF FF FF FF FF FF FF FF FF FF FF FF FF FF FF FF ...  returns 0x00 (0004ms, 0229ms total)
T6584 010:903 JLINK_ReadMem (0x0800F800, 0x0126 Bytes, ...) -- CPU_ReadMem(320 bytes @ 0x0800F800) -- Updating C cache (320 bytes @ 0x0800F800) -- Read from C cache (294 bytes @ 0x0800F800) - Data: 53 54 4D 33 32 20 46 4C 41 53 48 20 54 45 53 54 ...  returns 0x00 (0003ms, 0232ms total)
T6584 010:912 JLINK_ReadMem (0x0800234A, 0x0002 Bytes, ...) -- CPU_ReadMem(64 bytes @ 0x08002340) -- Updating C cache (64 bytes @ 0x08002340) -- Read from C cache (2 bytes @ 0x0800234A) - Data: 0D 4A  returns 0x00 (0001ms, 0233ms total)
T6584 010:913 JLINK_ReadMem (0x0800234C, 0x003C Bytes, ...) -- CPU_ReadMem(64 bytes @ 0x08002380) -- Updating C cache (64 bytes @ 0x08002380) -- Read from C cache (60 bytes @ 0x0800234C) - Data: 00 21 0D 48 00 F0 40 FA 0C 4C 0A 4A 00 21 A0 60 ...  returns 0x00 (0002ms, 0235ms total)
T6A08 011:765 JLINK_Step() -- Read from C cache (2 bytes @ 0x0800234A) -- CPU_ReadMem(4 bytes @ 0xE000ED18) -- CPU_WriteMem(4 bytes @ 0xE000ED18) -- CPU_ReadMem(4 bytes @ 0xE000ED18) -- CPU_WriteMem(4 bytes @ 0xE000ED18) -- Read from C cache (4 bytes @ 0x08002380) -- Simulated  returns 0x00 (0004ms, 0239ms total)
T6A08 011:769 JLINK_ReadReg(R15 (PC))  returns 0x0800234C (0000ms, 0239ms total)
T6A08 011:769 JLINK_ReadReg(XPSR)  returns 0x01000000 (0000ms, 0239ms total)
T6A08 011:769 JLINK_SetBPEx(Addr = 0x0800234A, Type = 0xFFFFFFF2)  returns 0x00000006 (0000ms, 0239ms total)
T6A08 011:769 JLINK_SetBPEx(Addr = 0x0800262C, Type = 0xFFFFFFF2)  returns 0x00000007 (0000ms, 0239ms total)
T6A08 011:769 JLINK_Go() -- CPU_WriteMem(4 bytes @ 0xE0002000) -- CPU_WriteMem(4 bytes @ 0xE0002000) -- CPU_ReadMem(4 bytes @ 0xE0001000) -- CPU_WriteMem(4 bytes @ 0xE0001004) (0005ms, 0244ms total)
T6A08 011:875 JLINK_IsHalted()  returns TRUE (0004ms, 0248ms total)
T6A08 011:879 JLINK_Halt()  returns 0x00 (0000ms, 0244ms total)
T6A08 011:879 JLINK_IsHalted()  returns TRUE (0000ms, 0244ms total)
T6A08 011:879 JLINK_IsHalted()  returns TRUE (0000ms, 0244ms total)
T6A08 011:879 JLINK_IsHalted()  returns TRUE (0000ms, 0244ms total)
T6A08 011:879 JLINK_ReadReg(R15 (PC))  returns 0x0800262C (0000ms, 0244ms total)
T6A08 011:879 JLINK_ReadReg(XPSR)  returns 0x01000000 (0000ms, 0244ms total)
T6A08 011:879 JLINK_ClrBPEx(BPHandle = 0x00000006)  returns 0x00 (0000ms, 0244ms total)
T6A08 011:879 JLINK_ClrBPEx(BPHandle = 0x00000007)  returns 0x00 (0000ms, 0244ms total)
T6A08 011:879 JLINK_ReadMemU32(0xE000ED30, 0x0001 Items, ...) -- CPU_ReadMem(4 bytes @ 0xE000ED30) - Data: 03 00 00 00  returns 0x01 (0002ms, 0246ms total)
T6A08 011:881 JLINK_ReadMemU32(0xE0001028, 0x0001 Items, ...) -- CPU_ReadMem(4 bytes @ 0xE0001028) - Data: 00 00 00 00  returns 0x01 (0001ms, 0247ms total)
T6A08 011:882 JLINK_ReadMemU32(0xE0001038, 0x0001 Items, ...) -- CPU_ReadMem(4 bytes @ 0xE0001038) - Data: 00 02 00 00  returns 0x01 (0000ms, 0247ms total)
T6A08 011:882 JLINK_ReadMemU32(0xE0001048, 0x0001 Items, ...) -- CPU_ReadMem(4 bytes @ 0xE0001048) - Data: 00 00 00 00  returns 0x01 (0001ms, 0248ms total)
T6A08 011:883 JLINK_ReadMemU32(0xE0001058, 0x0001 Items, ...) -- CPU_ReadMem(4 bytes @ 0xE0001058) - Data: 00 00 00 00  returns 0x01 (0001ms, 0249ms total)
T6A08 011:884 JLINK_ReadReg(R0)  returns 0x00000000 (0000ms, 0249ms total)
T6A08 011:884 JLINK_ReadReg(R1)  returns 0xA5A5A5A5 (0000ms, 0249ms total)
T6A08 011:884 JLINK_ReadReg(R2)  returns 0xA5A5A5A5 (0000ms, 0249ms total)
T6A08 011:884 JLINK_ReadReg(R3)  returns 0xA5A5A5A5 (0000ms, 0249ms total)
T6A08 011:884 JLINK_ReadReg(R4)  returns 0xA5A5A5A5 (0000ms, 0249ms total)
T6A08 011:884 JLINK_ReadReg(R5)  returns 0xA5A5A5A5 (0000ms, 0249ms total)
T6A08 011:884 JLINK_ReadReg(R6)  returns 0xA5A5A5A5 (0000ms, 0249ms total)
T6A08 011:884 JLINK_ReadReg(R7)  returns 0xA5A5A5A5 (0000ms, 0249ms total)
T6A08 011:884 JLINK_ReadReg(R8)  returns 0xA5A5A5A5 (0000ms, 0249ms total)
T6A08 011:884 JLINK_ReadReg(R9)  returns 0xA5A5A5A5 (0000ms, 0249ms total)
T6A08 011:884 JLINK_ReadReg(R10)  returns 0xA5A5A5A5 (0000ms, 0249ms total)
T6A08 011:884 JLINK_ReadReg(R11)  returns 0xA5A5A5A5 (0000ms, 0249ms total)
T6A08 011:884 JLINK_ReadReg(R12)  returns 0xA5A5A5A5 (0000ms, 0249ms total)
T6A08 011:884 JLINK_ReadReg(R13 (SP))  returns 0x200015E8 (0000ms, 0249ms total)
T6A08 011:885 JLINK_ReadReg(R14)  returns 0x08002F05 (0000ms, 0250ms total)
T6A08 011:885 JLINK_ReadReg(R15 (PC))  returns 0x0800262C (0000ms, 0250ms total)
T6A08 011:885 JLINK_ReadReg(XPSR)  returns 0x01000000 (0000ms, 0250ms total)
T6A08 011:885 JLINK_ReadReg(MSP)  returns 0x200025E0 (0000ms, 0250ms total)
T6A08 011:885 JLINK_ReadReg(PSP)  returns 0x200015E8 (0000ms, 0250ms total)
T6A08 011:885 JLINK_ReadReg(CFBP)  returns 0x02000000 (0000ms, 0250ms total)
T6584 011:892 JLINK_ReadMem (0x00000000, 0x0004 Bytes, ...) -- CPU_ReadMem(4 bytes @ 0x00000004) -- CPU_ReadMem(64 bytes @ 0x08000000) -- Updating C cache (64 bytes @ 0x08000000) -- Read from C cache (4 bytes @ 0x08000000) - Data: 00 26 00 20  returns 0x00 (0002ms, 0252ms total)
T6584 011:894 JLINK_ReadMem (0x200015D0, 0x0013 Bytes, ...) -- CPU_ReadMem(64 bytes @ 0x200015C0) -- Updating C cache (64 bytes @ 0x200015C0) -- Read from C cache (19 bytes @ 0x200015D0) - Data: A5 A5 A5 A5 A5 A5 A5 A5 A5 A5 A5 A5 05 2F 00 08 ...  returns 0x00 (0003ms, 0255ms total)
T6584 011:904 JLINK_ReadMemU32(0xE0001004, 0x0001 Items, ...) -- CPU_ReadMem(4 bytes @ 0xE0001004) - Data: C6 61 00 00  returns 0x01 (0001ms, 0256ms total)
T6584 011:908 JLINK_ReadMem (0x0800F700, 0x0100 Bytes, ...) -- CPU_ReadMem(256 bytes @ 0x0800F700) -- Updating C cache (256 bytes @ 0x0800F700) -- Read from C cache (256 bytes @ 0x0800F700) - Data: FF FF FF FF FF FF FF FF FF FF FF FF FF FF FF FF ...  returns 0x00 (0003ms, 0259ms total)
T6584 011:911 JLINK_ReadMem (0x0800F800, 0x0126 Bytes, ...) -- CPU_ReadMem(320 bytes @ 0x0800F800) -- Updating C cache (320 bytes @ 0x0800F800) -- Read from C cache (294 bytes @ 0x0800F800) - Data: 53 54 4D 33 32 20 46 4C 41 53 48 20 54 45 53 54 ...  returns 0x00 (0004ms, 0263ms total)
T6584 011:921 JLINK_ReadMem (0x0800262C, 0x003C Bytes, ...) -- CPU_ReadMem(128 bytes @ 0x08002600) -- Updating C cache (128 bytes @ 0x08002600) -- Read from C cache (60 bytes @ 0x0800262C) - Data: 0E 4C 86 B0 13 22 0C 49 20 46 FF F7 01 FE 13 22 ...  returns 0x00 (0002ms, 0265ms total)
T6A08 014:661 JLINK_Step() -- Read from C cache (2 bytes @ 0x0800262C) -- Read from C cache (4 bytes @ 0x08002668) -- Simulated  returns 0x00 (0001ms, 0266ms total)
T6A08 014:662 JLINK_ReadReg(R15 (PC))  returns 0x0800262E (0000ms, 0266ms total)
T6A08 014:662 JLINK_ReadReg(XPSR)  returns 0x01000000 (0000ms, 0266ms total)
T6A08 014:662 JLINK_ReadReg(R0)  returns 0x00000000 (0000ms, 0266ms total)
T6A08 014:662 JLINK_ReadReg(R1)  returns 0xA5A5A5A5 (0000ms, 0266ms total)
T6A08 014:662 JLINK_ReadReg(R2)  returns 0xA5A5A5A5 (0000ms, 0266ms total)
T6A08 014:662 JLINK_ReadReg(R3)  returns 0xA5A5A5A5 (0000ms, 0266ms total)
T6A08 014:662 JLINK_ReadReg(R4)  returns 0x0800F800 (0000ms, 0266ms total)
T6A08 014:662 JLINK_ReadReg(R5)  returns 0xA5A5A5A5 (0000ms, 0266ms total)
T6A08 014:662 JLINK_ReadReg(R6)  returns 0xA5A5A5A5 (0000ms, 0266ms total)
T6A08 014:662 JLINK_ReadReg(R7)  returns 0xA5A5A5A5 (0000ms, 0266ms total)
T6A08 014:662 JLINK_ReadReg(R8)  returns 0xA5A5A5A5 (0000ms, 0266ms total)
T6A08 014:662 JLINK_ReadReg(R9)  returns 0xA5A5A5A5 (0000ms, 0266ms total)
T6A08 014:662 JLINK_ReadReg(R10)  returns 0xA5A5A5A5 (0000ms, 0266ms total)
T6A08 014:662 JLINK_ReadReg(R11)  returns 0xA5A5A5A5 (0000ms, 0266ms total)
T6A08 014:662 JLINK_ReadReg(R12)  returns 0xA5A5A5A5 (0000ms, 0266ms total)
T6A08 014:662 JLINK_ReadReg(R13 (SP))  returns 0x200015E8 (0000ms, 0266ms total)
T6A08 014:662 JLINK_ReadReg(R14)  returns 0x08002F05 (0000ms, 0266ms total)
T6A08 014:662 JLINK_ReadReg(R15 (PC))  returns 0x0800262E (0000ms, 0266ms total)
T6A08 014:662 JLINK_ReadReg(XPSR)  returns 0x01000000 (0000ms, 0266ms total)
T6A08 014:662 JLINK_ReadReg(MSP)  returns 0x200025E0 (0000ms, 0266ms total)
T6A08 014:662 JLINK_ReadReg(PSP)  returns 0x200015E8 (0000ms, 0266ms total)
T6A08 014:662 JLINK_ReadReg(CFBP)  returns 0x02000000 (0000ms, 0266ms total)
T6584 014:664 JLINK_ReadMem (0x00000000, 0x0004 Bytes, ...) -- Read from C cache (4 bytes @ 0x08000000) - Data: 00 26 00 20  returns 0x00 (0000ms, 0266ms total)
T6584 014:664 JLINK_ReadMem (0x200015E8, 0x0013 Bytes, ...) -- Read from C cache (19 bytes @ 0x200015E8) - Data: A5 A5 A5 A5 A5 A5 A5 A5 00 00 00 00 68 00 00 80 ...  returns 0x00 (0001ms, 0267ms total)
T6584 014:665 JLINK_ReadMemU32(0xE0001004, 0x0001 Items, ...) - Data: C6 61 00 00  returns 0x01 (0000ms, 0267ms total)
T6584 014:666 JLINK_ReadMem (0x0800F700, 0x0100 Bytes, ...) -- Read from C cache (256 bytes @ 0x0800F700) - Data: FF FF FF FF FF FF FF FF FF FF FF FF FF FF FF FF ...  returns 0x00 (0000ms, 0267ms total)
T6584 014:666 JLINK_ReadMem (0x0800F800, 0x0126 Bytes, ...) -- Read from C cache (294 bytes @ 0x0800F800) - Data: 53 54 4D 33 32 20 46 4C 41 53 48 20 54 45 53 54 ...  returns 0x00 (0000ms, 0267ms total)
T6A08 015:708 JLINK_ReadMem (0x0800262E, 0x0002 Bytes, ...) -- Read from C cache (2 bytes @ 0x0800262E) - Data: 86 B0  returns 0x00 (0000ms, 0267ms total)
T6A08 015:708 JLINK_ReadMem (0x08002630, 0x003C Bytes, ...) -- Read from C cache (60 bytes @ 0x08002630) - Data: 13 22 0C 49 20 46 FF F7 01 FE 13 22 69 46 20 46 ...  returns 0x00 (0000ms, 0267ms total)
T6A08 015:708 JLINK_Step() -- Read from C cache (2 bytes @ 0x0800262E) -- Simulated  returns 0x00 (0001ms, 0268ms total)
T6A08 015:709 JLINK_ReadReg(R15 (PC))  returns 0x08002630 (0000ms, 0268ms total)
T6A08 015:709 JLINK_ReadReg(XPSR)  returns 0x01000000 (0000ms, 0268ms total)
T6A08 015:709 JLINK_Step() -- Read from C cache (2 bytes @ 0x08002630) -- Simulated  returns 0x00 (0000ms, 0268ms total)
T6A08 015:709 JLINK_ReadReg(R15 (PC))  returns 0x08002632 (0000ms, 0268ms total)
T6A08 015:709 JLINK_ReadReg(XPSR)  returns 0x01000000 (0000ms, 0268ms total)
T6A08 015:709 JLINK_Step() -- Read from C cache (2 bytes @ 0x08002632) -- Read from C cache (4 bytes @ 0x08002664) -- Simulated  returns 0x00 (0000ms, 0268ms total)
T6A08 015:709 JLINK_ReadReg(R15 (PC))  returns 0x08002634 (0000ms, 0268ms total)
T6A08 015:709 JLINK_ReadReg(XPSR)  returns 0x01000000 (0000ms, 0268ms total)
T6A08 015:709 JLINK_Step() -- Read from C cache (2 bytes @ 0x08002634) -- Simulated  returns 0x00 (0000ms, 0268ms total)
T6A08 015:709 JLINK_ReadReg(R15 (PC))  returns 0x08002636 (0000ms, 0268ms total)
T6A08 015:709 JLINK_ReadReg(XPSR)  returns 0x01000000 (0000ms, 0268ms total)
T6A08 015:709 JLINK_Step() -- Read from C cache (2 bytes @ 0x08002636) -- Read from C cache (2 bytes @ 0x08002638) -- Simulated  returns 0x00 (0000ms, 0268ms total)
T6A08 015:709 JLINK_ReadReg(R15 (PC))  returns 0x0800223C (0000ms, 0268ms total)
T6A08 015:709 JLINK_ReadReg(XPSR)  returns 0x01000000 (0000ms, 0268ms total)
T6A08 015:709 JLINK_ReadReg(R0)  returns 0x0800F800 (0000ms, 0268ms total)
T6A08 015:709 JLINK_ReadReg(R1)  returns 0x08003FAA (0001ms, 0269ms total)
T6A08 015:710 JLINK_ReadReg(R2)  returns 0x00000013 (0000ms, 0269ms total)
T6A08 015:710 JLINK_ReadReg(R3)  returns 0xA5A5A5A5 (0000ms, 0269ms total)
T6A08 015:710 JLINK_ReadReg(R4)  returns 0x0800F800 (0000ms, 0269ms total)
T6A08 015:710 JLINK_ReadReg(R5)  returns 0xA5A5A5A5 (0000ms, 0269ms total)
T6A08 015:710 JLINK_ReadReg(R6)  returns 0xA5A5A5A5 (0000ms, 0269ms total)
T6A08 015:710 JLINK_ReadReg(R7)  returns 0xA5A5A5A5 (0000ms, 0269ms total)
T6A08 015:710 JLINK_ReadReg(R8)  returns 0xA5A5A5A5 (0000ms, 0269ms total)
T6A08 015:710 JLINK_ReadReg(R9)  returns 0xA5A5A5A5 (0000ms, 0269ms total)
T6A08 015:710 JLINK_ReadReg(R10)  returns 0xA5A5A5A5 (0000ms, 0269ms total)
T6A08 015:710 JLINK_ReadReg(R11)  returns 0xA5A5A5A5 (0000ms, 0269ms total)
T6A08 015:710 JLINK_ReadReg(R12)  returns 0xA5A5A5A5 (0000ms, 0269ms total)
T6A08 015:710 JLINK_ReadReg(R13 (SP))  returns 0x200015D0 (0000ms, 0269ms total)
T6A08 015:710 JLINK_ReadReg(R14)  returns 0x0800263B (0000ms, 0269ms total)
T6A08 015:710 JLINK_ReadReg(R15 (PC))  returns 0x0800223C (0000ms, 0269ms total)
T6A08 015:710 JLINK_ReadReg(XPSR)  returns 0x01000000 (0000ms, 0269ms total)
T6A08 015:710 JLINK_ReadReg(MSP)  returns 0x200025E0 (0000ms, 0269ms total)
T6A08 015:710 JLINK_ReadReg(PSP)  returns 0x200015D0 (0000ms, 0269ms total)
T6A08 015:710 JLINK_ReadReg(CFBP)  returns 0x02000000 (0000ms, 0269ms total)
T6584 015:710 JLINK_ReadMem (0x00000000, 0x0004 Bytes, ...) -- Read from C cache (4 bytes @ 0x08000000) - Data: 00 26 00 20  returns 0x00 (0001ms, 0270ms total)
T6584 015:717 JLINK_ReadMem (0x200015D0, 0x0013 Bytes, ...) -- Read from C cache (19 bytes @ 0x200015D0) - Data: A5 A5 A5 A5 A5 A5 A5 A5 A5 A5 A5 A5 05 2F 00 08 ...  returns 0x00 (0000ms, 0270ms total)
T6584 015:717 JLINK_ReadMemU32(0xE0001004, 0x0001 Items, ...) - Data: C6 61 00 00  returns 0x01 (0000ms, 0270ms total)
T6584 015:717 JLINK_ReadMem (0x0800F700, 0x0100 Bytes, ...) -- Read from C cache (256 bytes @ 0x0800F700) - Data: FF FF FF FF FF FF FF FF FF FF FF FF FF FF FF FF ...  returns 0x00 (0000ms, 0270ms total)
T6584 015:717 JLINK_ReadMem (0x0800F800, 0x0126 Bytes, ...) -- Read from C cache (294 bytes @ 0x0800F800) - Data: 53 54 4D 33 32 20 46 4C 41 53 48 20 54 45 53 54 ...  returns 0x00 (0000ms, 0270ms total)
T6584 318:472 JLINK_ReadMem (0x08003FAA, 0x0002 Bytes, ...) -- CPU_ReadMem(64 bytes @ 0x08003F80) -- Updating C cache (64 bytes @ 0x08003F80) -- Read from C cache (2 bytes @ 0x08003FAA) - Data: 53 54  returns 0x00 (0002ms, 0272ms total)
T6A08 583:234 JLINK_ReadMem (0x0800223C, 0x003C Bytes, ...) -- CPU_ReadMem(128 bytes @ 0x08002200) -- Updating C cache (128 bytes @ 0x08002200) -- Read from C cache (60 bytes @ 0x0800223C) - Data: 2D E9 F0 5F A0 F1 00 64 15 46 8A 46 83 46 B4 F5 ...  returns 0x00 (0002ms, 0274ms total)
T6A08 583:236 JLINK_Step() -- Read from C cache (2 bytes @ 0x0800223C) -- Read from C cache (2 bytes @ 0x0800223E) -- Not simulated -- CPU_WriteMem(4 bytes @ 0xE0002008) -- CPU_WriteMem(4 bytes @ 0xE000200C) -- CPU_WriteMem(4 bytes @ 0xE0001004)  returns 0x00 (0008ms, 0282ms total)
T6A08 583:244 JLINK_ReadReg(R15 (PC))  returns 0x08002240 (0000ms, 0282ms total)
T6A08 583:244 JLINK_ReadReg(XPSR)  returns 0x01000000 (0000ms, 0282ms total)
T6A08 583:244 JLINK_ReadReg(R0)  returns 0x0800F800 (0000ms, 0282ms total)
T6A08 583:244 JLINK_ReadReg(R1)  returns 0x08003FAA (0001ms, 0283ms total)
T6A08 583:245 JLINK_ReadReg(R2)  returns 0x00000013 (0000ms, 0283ms total)
T6A08 583:245 JLINK_ReadReg(R3)  returns 0xA5A5A5A5 (0000ms, 0283ms total)
T6A08 583:245 JLINK_ReadReg(R4)  returns 0x0800F800 (0000ms, 0283ms total)
T6A08 583:245 JLINK_ReadReg(R5)  returns 0xA5A5A5A5 (0000ms, 0283ms total)
T6A08 583:245 JLINK_ReadReg(R6)  returns 0xA5A5A5A5 (0000ms, 0283ms total)
T6A08 583:245 JLINK_ReadReg(R7)  returns 0xA5A5A5A5 (0000ms, 0283ms total)
T6A08 583:245 JLINK_ReadReg(R8)  returns 0xA5A5A5A5 (0000ms, 0283ms total)
T6A08 583:245 JLINK_ReadReg(R9)  returns 0xA5A5A5A5 (0000ms, 0283ms total)
T6A08 583:245 JLINK_ReadReg(R10)  returns 0xA5A5A5A5 (0000ms, 0283ms total)
T6A08 583:245 JLINK_ReadReg(R11)  returns 0xA5A5A5A5 (0000ms, 0283ms total)
T6A08 583:245 JLINK_ReadReg(R12)  returns 0xA5A5A5A5 (0000ms, 0283ms total)
T6A08 583:245 JLINK_ReadReg(R13 (SP))  returns 0x200015A8 (0000ms, 0283ms total)
T6A08 583:245 JLINK_ReadReg(R14)  returns 0x0800263B (0000ms, 0283ms total)
T6A08 583:245 JLINK_ReadReg(R15 (PC))  returns 0x08002240 (0000ms, 0283ms total)
T6A08 583:245 JLINK_ReadReg(XPSR)  returns 0x01000000 (0000ms, 0283ms total)
T6A08 583:245 JLINK_ReadReg(MSP)  returns 0x200025E0 (0000ms, 0283ms total)
T6A08 583:245 JLINK_ReadReg(PSP)  returns 0x200015A8 (0000ms, 0283ms total)
T6A08 583:245 JLINK_ReadReg(CFBP)  returns 0x02000000 (0000ms, 0283ms total)
T6584 583:246 JLINK_ReadMem (0x200015CC, 0x0004 Bytes, ...) -- CPU_ReadMem(64 bytes @ 0x200015C0) -- Updating C cache (64 bytes @ 0x200015C0) -- Read from C cache (4 bytes @ 0x200015CC) - Data: 3B 26 00 08  returns 0x00 (0001ms, 0284ms total)
T6584 583:247 JLINK_ReadMem (0x200015A8, 0x0004 Bytes, ...) -- CPU_ReadMem(64 bytes @ 0x20001580) -- Updating C cache (64 bytes @ 0x20001580) -- Read from C cache (4 bytes @ 0x200015A8) - Data: 00 F8 00 08  returns 0x00 (0002ms, 0286ms total)
T6584 583:249 JLINK_ReadMem (0x200015AC, 0x0004 Bytes, ...) -- Read from C cache (4 bytes @ 0x200015AC) - Data: A5 A5 A5 A5  returns 0x00 (0000ms, 0286ms total)
T6584 583:249 JLINK_ReadMem (0x200015B0, 0x0004 Bytes, ...) -- Read from C cache (4 bytes @ 0x200015B0) - Data: A5 A5 A5 A5  returns 0x00 (0000ms, 0286ms total)
T6584 583:249 JLINK_ReadMem (0x200015B4, 0x0004 Bytes, ...) -- Read from C cache (4 bytes @ 0x200015B4) - Data: A5 A5 A5 A5  returns 0x00 (0000ms, 0286ms total)
T6584 583:249 JLINK_ReadMem (0x200015B8, 0x0004 Bytes, ...) -- Read from C cache (4 bytes @ 0x200015B8) - Data: A5 A5 A5 A5  returns 0x00 (0000ms, 0286ms total)
T6584 583:249 JLINK_ReadMem (0x200015BC, 0x0004 Bytes, ...) -- Read from C cache (4 bytes @ 0x200015BC) - Data: A5 A5 A5 A5  returns 0x00 (0000ms, 0286ms total)
T6584 583:249 JLINK_ReadMem (0x200015C0, 0x0004 Bytes, ...) -- Read from C cache (4 bytes @ 0x200015C0) - Data: A5 A5 A5 A5  returns 0x00 (0000ms, 0286ms total)
T6584 583:249 JLINK_ReadMem (0x200015C4, 0x0004 Bytes, ...) -- Read from C cache (4 bytes @ 0x200015C4) - Data: A5 A5 A5 A5  returns 0x00 (0000ms, 0286ms total)
T6584 583:249 JLINK_ReadMem (0x00000000, 0x0004 Bytes, ...) -- CPU_ReadMem(4 bytes @ 0x00000004) -- CPU_ReadMem(64 bytes @ 0x08000000) -- Updating C cache (64 bytes @ 0x08000000) -- Read from C cache (4 bytes @ 0x08000000) - Data: 00 26 00 20  returns 0x00 (0002ms, 0288ms total)
T6584 583:251 JLINK_ReadMem (0x200015D0, 0x0013 Bytes, ...) -- Read from C cache (19 bytes @ 0x200015D0) - Data: A5 A5 A5 A5 A5 A5 A5 A5 A5 A5 A5 A5 05 2F 00 08 ...  returns 0x00 (0000ms, 0288ms total)
T6584 583:252 JLINK_ReadMemU32(0xE0001004, 0x0001 Items, ...) -- CPU_ReadMem(4 bytes @ 0xE0001004) - Data: DA 61 00 00  returns 0x01 (0001ms, 0289ms total)
T6584 583:255 JLINK_ReadMem (0x0800F700, 0x0100 Bytes, ...) -- CPU_ReadMem(256 bytes @ 0x0800F700) -- Updating C cache (256 bytes @ 0x0800F700) -- Read from C cache (256 bytes @ 0x0800F700) - Data: FF FF FF FF FF FF FF FF FF FF FF FF FF FF FF FF ...  returns 0x00 (0003ms, 0292ms total)
T6584 583:258 JLINK_ReadMem (0x0800F800, 0x0126 Bytes, ...) -- CPU_ReadMem(320 bytes @ 0x0800F800) -- Updating C cache (320 bytes @ 0x0800F800) -- Read from C cache (294 bytes @ 0x0800F800) - Data: 53 54 4D 33 32 20 46 4C 41 53 48 20 54 45 53 54 ...  returns 0x00 (0005ms, 0297ms total)
T6584 583:269 JLINK_ReadMem (0x08002240, 0x003C Bytes, ...) -- CPU_ReadMem(64 bytes @ 0x08002240) -- Updating C cache (64 bytes @ 0x08002240) -- Read from C cache (60 bytes @ 0x08002240) - Data: A0 F1 00 64 15 46 8A 46 83 46 B4 F5 80 3F 5F D2 ...  returns 0x00 (0001ms, 0298ms total)
T6A08 585:446 JLINK_Step() -- Read from C cache (2 bytes @ 0x08002240) -- Read from C cache (2 bytes @ 0x08002242) -- Simulated  returns 0x00 (0000ms, 0298ms total)
T6A08 585:446 JLINK_ReadReg(R15 (PC))  returns 0x08002244 (0000ms, 0298ms total)
T6A08 585:446 JLINK_ReadReg(XPSR)  returns 0x01000000 (0000ms, 0298ms total)
T6A08 585:446 JLINK_Step() -- Read from C cache (2 bytes @ 0x08002244) -- Simulated  returns 0x00 (0000ms, 0298ms total)
T6A08 585:446 JLINK_ReadReg(R15 (PC))  returns 0x08002246 (0000ms, 0298ms total)
T6A08 585:446 JLINK_ReadReg(XPSR)  returns 0x01000000 (0000ms, 0298ms total)
T6A08 585:446 JLINK_Step() -- Read from C cache (2 bytes @ 0x08002246) -- Simulated  returns 0x00 (0000ms, 0298ms total)
T6A08 585:446 JLINK_ReadReg(R15 (PC))  returns 0x08002248 (0001ms, 0299ms total)
T6A08 585:447 JLINK_ReadReg(XPSR)  returns 0x01000000 (0000ms, 0299ms total)
T6A08 585:447 JLINK_Step() -- Read from C cache (2 bytes @ 0x08002248) -- Simulated  returns 0x00 (0000ms, 0299ms total)
T6A08 585:447 JLINK_ReadReg(R15 (PC))  returns 0x0800224A (0000ms, 0299ms total)
T6A08 585:447 JLINK_ReadReg(XPSR)  returns 0x01000000 (0000ms, 0299ms total)
T6A08 585:447 JLINK_Step() -- Read from C cache (2 bytes @ 0x0800224A) -- Read from C cache (2 bytes @ 0x0800224C) -- Simulated  returns 0x00 (0000ms, 0299ms total)
T6A08 585:447 JLINK_ReadReg(R15 (PC))  returns 0x0800224E (0000ms, 0299ms total)
T6A08 585:447 JLINK_ReadReg(XPSR)  returns 0x81000000 (0000ms, 0299ms total)
T6A08 585:447 JLINK_Step() -- Read from C cache (2 bytes @ 0x0800224E) -- Simulated  returns 0x00 (0000ms, 0299ms total)
T6A08 585:447 JLINK_ReadReg(R15 (PC))  returns 0x08002250 (0000ms, 0299ms total)
T6A08 585:447 JLINK_ReadReg(XPSR)  returns 0x81000000 (0000ms, 0299ms total)
T6A08 585:447 JLINK_ReadReg(R0)  returns 0x0800F800 (0000ms, 0299ms total)
T6A08 585:447 JLINK_ReadReg(R1)  returns 0x08003FAA (0000ms, 0299ms total)
T6A08 585:447 JLINK_ReadReg(R2)  returns 0x00000013 (0000ms, 0299ms total)
T6A08 585:447 JLINK_ReadReg(R3)  returns 0xA5A5A5A5 (0000ms, 0299ms total)
T6A08 585:447 JLINK_ReadReg(R4)  returns 0x0000F800 (0000ms, 0299ms total)
T6A08 585:447 JLINK_ReadReg(R5)  returns 0x00000013 (0000ms, 0299ms total)
T6A08 585:447 JLINK_ReadReg(R6)  returns 0xA5A5A5A5 (0000ms, 0299ms total)
T6A08 585:447 JLINK_ReadReg(R7)  returns 0xA5A5A5A5 (0000ms, 0299ms total)
T6A08 585:447 JLINK_ReadReg(R8)  returns 0xA5A5A5A5 (0000ms, 0299ms total)
T6A08 585:447 JLINK_ReadReg(R9)  returns 0xA5A5A5A5 (0000ms, 0299ms total)
T6A08 585:447 JLINK_ReadReg(R10)  returns 0x08003FAA (0000ms, 0299ms total)
T6A08 585:447 JLINK_ReadReg(R11)  returns 0x0800F800 (0000ms, 0299ms total)
T6A08 585:447 JLINK_ReadReg(R12)  returns 0xA5A5A5A5 (0000ms, 0299ms total)
T6A08 585:447 JLINK_ReadReg(R13 (SP))  returns 0x200015A8 (0000ms, 0299ms total)
T6A08 585:447 JLINK_ReadReg(R14)  returns 0x0800263B (0000ms, 0299ms total)
T6A08 585:447 JLINK_ReadReg(R15 (PC))  returns 0x08002250 (0000ms, 0299ms total)
T6A08 585:447 JLINK_ReadReg(XPSR)  returns 0x81000000 (0000ms, 0299ms total)
T6A08 585:447 JLINK_ReadReg(MSP)  returns 0x200025E0 (0000ms, 0299ms total)
T6A08 585:447 JLINK_ReadReg(PSP)  returns 0x200015A8 (0000ms, 0299ms total)
T6A08 585:447 JLINK_ReadReg(CFBP)  returns 0x02000000 (0000ms, 0299ms total)
T6584 585:448 JLINK_ReadMem (0x200015CC, 0x0004 Bytes, ...) -- Read from C cache (4 bytes @ 0x200015CC) - Data: 3B 26 00 08  returns 0x00 (0000ms, 0299ms total)
T6584 585:448 JLINK_ReadMem (0x200015A8, 0x0004 Bytes, ...) -- Read from C cache (4 bytes @ 0x200015A8) - Data: 00 F8 00 08  returns 0x00 (0000ms, 0299ms total)
T6584 585:448 JLINK_ReadMem (0x200015AC, 0x0004 Bytes, ...) -- Read from C cache (4 bytes @ 0x200015AC) - Data: A5 A5 A5 A5  returns 0x00 (0000ms, 0299ms total)
T6584 585:448 JLINK_ReadMem (0x200015B0, 0x0004 Bytes, ...) -- Read from C cache (4 bytes @ 0x200015B0) - Data: A5 A5 A5 A5  returns 0x00 (0000ms, 0299ms total)
T6584 585:448 JLINK_ReadMem (0x200015B4, 0x0004 Bytes, ...) -- Read from C cache (4 bytes @ 0x200015B4) - Data: A5 A5 A5 A5  returns 0x00 (0000ms, 0299ms total)
T6584 585:448 JLINK_ReadMem (0x200015B8, 0x0004 Bytes, ...) -- Read from C cache (4 bytes @ 0x200015B8) - Data: A5 A5 A5 A5  returns 0x00 (0000ms, 0299ms total)
T6584 585:448 JLINK_ReadMem (0x200015BC, 0x0004 Bytes, ...) -- Read from C cache (4 bytes @ 0x200015BC) - Data: A5 A5 A5 A5  returns 0x00 (0000ms, 0299ms total)
T6584 585:448 JLINK_ReadMem (0x200015C0, 0x0004 Bytes, ...) -- Read from C cache (4 bytes @ 0x200015C0) - Data: A5 A5 A5 A5  returns 0x00 (0000ms, 0299ms total)
T6584 585:448 JLINK_ReadMem (0x200015C4, 0x0004 Bytes, ...) -- Read from C cache (4 bytes @ 0x200015C4) - Data: A5 A5 A5 A5  returns 0x00 (0000ms, 0299ms total)
T6584 585:448 JLINK_ReadMem (0x00000000, 0x0004 Bytes, ...) -- Read from C cache (4 bytes @ 0x08000000) - Data: 00 26 00 20  returns 0x00 (0000ms, 0299ms total)
T6584 585:448 JLINK_ReadMem (0x200015D0, 0x0013 Bytes, ...) -- Read from C cache (19 bytes @ 0x200015D0) - Data: A5 A5 A5 A5 A5 A5 A5 A5 A5 A5 A5 A5 05 2F 00 08 ...  returns 0x00 (0000ms, 0299ms total)
T6584 585:448 JLINK_ReadMemU32(0xE0001004, 0x0001 Items, ...) - Data: DA 61 00 00  returns 0x01 (0000ms, 0299ms total)
T6584 585:448 JLINK_ReadMem (0x0800F700, 0x0100 Bytes, ...) -- Read from C cache (256 bytes @ 0x0800F700) - Data: FF FF FF FF FF FF FF FF FF FF FF FF FF FF FF FF ...  returns 0x00 (0001ms, 0300ms total)
T6584 585:449 JLINK_ReadMem (0x0800F800, 0x0126 Bytes, ...) -- Read from C cache (294 bytes @ 0x0800F800) - Data: 53 54 4D 33 32 20 46 4C 41 53 48 20 54 45 53 54 ...  returns 0x00 (0000ms, 0300ms total)
T6584 585:453 JLINK_ReadMem (0x08002250, 0x003C Bytes, ...) -- CPU_ReadMem(64 bytes @ 0x08002280) -- Updating C cache (64 bytes @ 0x08002280) -- Read from C cache (60 bytes @ 0x08002250) - Data: FF F7 C6 F8 A7 0A C4 F3 48 06 C6 F5 00 74 A5 42 ...  returns 0x00 (0002ms, 0302ms total)
T6A08 586:674 JLINK_SetBPEx(Addr = 0x08002254, Type = 0xFFFFFFF2)  returns 0x00000008 (0000ms, 0302ms total)
T6A08 586:674 JLINK_SetBPEx(Addr = 0x0800234A, Type = 0xFFFFFFF2)  returns 0x00000009 (0000ms, 0302ms total)
T6A08 586:674 JLINK_SetBPEx(Addr = 0x0800262C, Type = 0xFFFFFFF2)  returns 0x0000000A (0000ms, 0302ms total)
T6A08 586:674 JLINK_Go() -- CPU_WriteMem(4 bytes @ 0xE0002000) -- CPU_WriteMem(4 bytes @ 0xE0002000) -- CPU_WriteMem(4 bytes @ 0xE0002000) -- CPU_ReadMem(4 bytes @ 0xE0001000) -- CPU_WriteMem(4 bytes @ 0xE0002008) -- CPU_WriteMem(4 bytes @ 0xE000200C) -- CPU_WriteMem(4 bytes @ 0xE0002010) -- CPU_WriteMem(4 bytes @ 0xE0001004) (0008ms, 0310ms total)
T6A08 586:783 JLINK_IsHalted()  returns TRUE (0005ms, 0315ms total)
T6A08 586:788 JLINK_Halt()  returns 0x00 (0000ms, 0310ms total)
T6A08 586:788 JLINK_IsHalted()  returns TRUE (0000ms, 0310ms total)
T6A08 586:788 JLINK_IsHalted()  returns TRUE (0000ms, 0310ms total)
T6A08 586:788 JLINK_IsHalted()  returns TRUE (0000ms, 0310ms total)
T6A08 586:788 JLINK_ReadReg(R15 (PC))  returns 0x08002254 (0000ms, 0310ms total)
T6A08 586:788 JLINK_ReadReg(XPSR)  returns 0x41000000 (0000ms, 0310ms total)
T6A08 586:788 JLINK_ClrBPEx(BPHandle = 0x00000008)  returns 0x00 (0000ms, 0310ms total)
T6A08 586:788 JLINK_ClrBPEx(BPHandle = 0x00000009)  returns 0x00 (0000ms, 0310ms total)
T6A08 586:788 JLINK_ClrBPEx(BPHandle = 0x0000000A)  returns 0x00 (0000ms, 0310ms total)
T6A08 586:789 JLINK_ReadMemU32(0xE000ED30, 0x0001 Items, ...) -- CPU_ReadMem(4 bytes @ 0xE000ED30) - Data: 03 00 00 00  returns 0x01 (0001ms, 0311ms total)
T6A08 586:790 JLINK_ReadMemU32(0xE0001028, 0x0001 Items, ...) -- CPU_ReadMem(4 bytes @ 0xE0001028) - Data: 00 00 00 00  returns 0x01 (0001ms, 0312ms total)
T6A08 586:791 JLINK_ReadMemU32(0xE0001038, 0x0001 Items, ...) -- CPU_ReadMem(4 bytes @ 0xE0001038) - Data: 00 02 00 00  returns 0x01 (0001ms, 0313ms total)
T6A08 586:792 JLINK_ReadMemU32(0xE0001048, 0x0001 Items, ...) -- CPU_ReadMem(4 bytes @ 0xE0001048) - Data: 00 00 00 00  returns 0x01 (0001ms, 0314ms total)
T6A08 586:793 JLINK_ReadMemU32(0xE0001058, 0x0001 Items, ...) -- CPU_ReadMem(4 bytes @ 0xE0001058) - Data: 00 00 00 00  returns 0x01 (0001ms, 0315ms total)
T6A08 586:794 JLINK_ReadReg(R0)  returns 0x00000000 (0000ms, 0315ms total)
T6A08 586:794 JLINK_ReadReg(R1)  returns 0x00000000 (0000ms, 0315ms total)
T6A08 586:794 JLINK_ReadReg(R2)  returns 0xCDEF89AB (0000ms, 0315ms total)
T6A08 586:794 JLINK_ReadReg(R3)  returns 0xA5A5A5A5 (0000ms, 0315ms total)
T6A08 586:794 JLINK_ReadReg(R4)  returns 0x0000F800 (0000ms, 0315ms total)
T6A08 586:794 JLINK_ReadReg(R5)  returns 0x00000013 (0000ms, 0315ms total)
T6A08 586:794 JLINK_ReadReg(R6)  returns 0xA5A5A5A5 (0000ms, 0315ms total)
T6A08 586:794 JLINK_ReadReg(R7)  returns 0xA5A5A5A5 (0000ms, 0315ms total)
T6A08 586:794 JLINK_ReadReg(R8)  returns 0xA5A5A5A5 (0000ms, 0315ms total)
T6A08 586:794 JLINK_ReadReg(R9)  returns 0xA5A5A5A5 (0000ms, 0315ms total)
T6A08 586:794 JLINK_ReadReg(R10)  returns 0x08003FAA (0000ms, 0315ms total)
T6A08 586:794 JLINK_ReadReg(R11)  returns 0x0800F800 (0000ms, 0315ms total)
T6A08 586:794 JLINK_ReadReg(R12)  returns 0xA5A5A5A5 (0000ms, 0315ms total)
T6A08 586:794 JLINK_ReadReg(R13 (SP))  returns 0x200015A8 (0000ms, 0315ms total)
T6A08 586:794 JLINK_ReadReg(R14)  returns 0x08002255 (0000ms, 0315ms total)
T6A08 586:794 JLINK_ReadReg(R15 (PC))  returns 0x08002254 (0000ms, 0315ms total)
T6A08 586:794 JLINK_ReadReg(XPSR)  returns 0x41000000 (0000ms, 0315ms total)
T6A08 586:794 JLINK_ReadReg(MSP)  returns 0x200025E0 (0000ms, 0315ms total)
T6A08 586:794 JLINK_ReadReg(PSP)  returns 0x200015A8 (0000ms, 0315ms total)
T6A08 586:794 JLINK_ReadReg(CFBP)  returns 0x02000000 (0000ms, 0315ms total)
T6584 586:794 JLINK_ReadMem (0x200015CC, 0x0004 Bytes, ...) -- CPU_ReadMem(64 bytes @ 0x200015C0) -- Updating C cache (64 bytes @ 0x200015C0) -- Read from C cache (4 bytes @ 0x200015CC) - Data: 3B 26 00 08  returns 0x00 (0002ms, 0317ms total)
T6584 586:796 JLINK_ReadMem (0x200015A8, 0x0004 Bytes, ...) -- CPU_ReadMem(64 bytes @ 0x20001580) -- Updating C cache (64 bytes @ 0x20001580) -- Read from C cache (4 bytes @ 0x200015A8) - Data: 00 F8 00 08  returns 0x00 (0002ms, 0319ms total)
T6584 586:798 JLINK_ReadMem (0x200015AC, 0x0004 Bytes, ...) -- Read from C cache (4 bytes @ 0x200015AC) - Data: A5 A5 A5 A5  returns 0x00 (0000ms, 0319ms total)
T6584 586:798 JLINK_ReadMem (0x200015B0, 0x0004 Bytes, ...) -- Read from C cache (4 bytes @ 0x200015B0) - Data: A5 A5 A5 A5  returns 0x00 (0000ms, 0319ms total)
T6584 586:798 JLINK_ReadMem (0x200015B4, 0x0004 Bytes, ...) -- Read from C cache (4 bytes @ 0x200015B4) - Data: A5 A5 A5 A5  returns 0x00 (0000ms, 0319ms total)
T6584 586:798 JLINK_ReadMem (0x200015B8, 0x0004 Bytes, ...) -- Read from C cache (4 bytes @ 0x200015B8) - Data: A5 A5 A5 A5  returns 0x00 (0000ms, 0319ms total)
T6584 586:798 JLINK_ReadMem (0x200015BC, 0x0004 Bytes, ...) -- Read from C cache (4 bytes @ 0x200015BC) - Data: A5 A5 A5 A5  returns 0x00 (0000ms, 0319ms total)
T6584 586:798 JLINK_ReadMem (0x200015C0, 0x0004 Bytes, ...) -- Read from C cache (4 bytes @ 0x200015C0) - Data: A5 A5 A5 A5  returns 0x00 (0000ms, 0319ms total)
T6584 586:798 JLINK_ReadMem (0x200015C4, 0x0004 Bytes, ...) -- Read from C cache (4 bytes @ 0x200015C4) - Data: A5 A5 A5 A5  returns 0x00 (0000ms, 0319ms total)
T6584 586:798 JLINK_ReadMem (0x00000000, 0x0004 Bytes, ...) -- CPU_ReadMem(4 bytes @ 0x00000004) -- CPU_ReadMem(64 bytes @ 0x08000000) -- Updating C cache (64 bytes @ 0x08000000) -- Read from C cache (4 bytes @ 0x08000000) - Data: 00 26 00 20  returns 0x00 (0003ms, 0322ms total)
T6584 586:801 JLINK_ReadMem (0x200015D0, 0x0013 Bytes, ...) -- Read from C cache (19 bytes @ 0x200015D0) - Data: A5 A5 A5 A5 A5 A5 A5 A5 A5 A5 A5 A5 05 2F 00 08 ...  returns 0x00 (0000ms, 0322ms total)
T6584 586:801 JLINK_ReadMemU32(0xE0001004, 0x0001 Items, ...) -- CPU_ReadMem(4 bytes @ 0xE0001004) - Data: 48 64 00 00  returns 0x01 (0000ms, 0322ms total)
T6584 586:802 JLINK_ReadMem (0x0800F700, 0x0100 Bytes, ...) -- CPU_ReadMem(256 bytes @ 0x0800F700) -- Updating C cache (256 bytes @ 0x0800F700) -- Read from C cache (256 bytes @ 0x0800F700) - Data: FF FF FF FF FF FF FF FF FF FF FF FF FF FF FF FF ...  returns 0x00 (0003ms, 0325ms total)
